
**** 10/29/24 18:55:52 *********** Evaluation PSpice (Nov 1999) **************

 * C:\Users\alexm\Documents\1rUAB\EE\Practica3\ejercicio5\Schematic2.sch


 ****     CIRCUIT DESCRIPTION


******************************************************************************




* Schematics Version 9.1 - Web Update 1
* Tue Oct 29 18:55:52 2024



** Analysis setup **
.tran 0m 0.4m
.OP 


* From [PSPICE NETLIST] section of pspiceev.ini:
.lib "nom.lib"

.INC "Schematic2.net"

**** INCLUDING Schematic2.net ****
* Schematics Netlist *



R_R2         $N_0002 $N_0001  1k  
R_R1         $N_0002 $N_0001  1k  
D_D1         $N_0003 0 D1N4002 
V_V1         $N_0002 0  
+SIN 0 5 10K 0 0 0
R_R3         $N_0001 $N_0003  1k  

**** RESUMING Schematic2.cir ****
.INC "Schematic2.als"



**** INCLUDING Schematic2.als ****
* Schematics Aliases *

.ALIASES
R_R2            R2(1=$N_0002 2=$N_0001 )
R_R1            R1(1=$N_0002 2=$N_0001 )
D_D1            D1(1=$N_0003 2=0 )
V_V1            V1(+=$N_0002 -=0 )
R_R3            R3(1=$N_0001 2=$N_0003 )
.ENDALIASES


**** RESUMING Schematic2.cir ****
.probe


.END

**** 10/29/24 18:55:52 *********** Evaluation PSpice (Nov 1999) **************

 * C:\Users\alexm\Documents\1rUAB\EE\Practica3\ejercicio5\Schematic2.sch


 ****     Diode MODEL PARAMETERS


******************************************************************************




               D1N4002         
          IS   14.110000E-09 
           N    1.984        
         ISR  100.000000E-12 
         IKF   94.81         
          BV  100.1          
         IBV   10            
          RS     .03389      
          TT    4.761000E-06 
         CJO   51.170000E-12 
          VJ     .3905       
           M     .2762       


**** 10/29/24 18:55:52 *********** Evaluation PSpice (Nov 1999) **************

 * C:\Users\alexm\Documents\1rUAB\EE\Practica3\ejercicio5\Schematic2.sch


 ****     SMALL SIGNAL BIAS SOLUTION       TEMPERATURE =   27.000 DEG C


******************************************************************************



 NODE   VOLTAGE     NODE   VOLTAGE     NODE   VOLTAGE     NODE   VOLTAGE


($N_0001) 257.6E-24                   ($N_0002)    0.0000                       

($N_0003) 772.7E-24                   




    VOLTAGE SOURCE CURRENTS
    NAME         CURRENT

    V_V1         5.152E-25

    TOTAL POWER DISSIPATION   0.00E+00  WATTS


**** 10/29/24 18:55:52 *********** Evaluation PSpice (Nov 1999) **************

 * C:\Users\alexm\Documents\1rUAB\EE\Practica3\ejercicio5\Schematic2.sch


 ****     OPERATING POINT INFORMATION      TEMPERATURE =   27.000 DEG C


******************************************************************************






**** DIODES


NAME         D_D1      
MODEL        D1N4002   
ID           0.00E+00 
VD           7.73E-22 
REQ          3.61E+06 
CAP          5.25E-11 
**** 10/29/24 18:55:52 *********** Evaluation PSpice (Nov 1999) **************

 * C:\Users\alexm\Documents\1rUAB\EE\Practica3\ejercicio5\Schematic2.sch


 ****     INITIAL TRANSIENT SOLUTION       TEMPERATURE =   27.000 DEG C


******************************************************************************



 NODE   VOLTAGE     NODE   VOLTAGE     NODE   VOLTAGE     NODE   VOLTAGE


($N_0001) 257.6E-24                   ($N_0002)    0.0000                       

($N_0003) 772.7E-24                   




    VOLTAGE SOURCE CURRENTS
    NAME         CURRENT

    V_V1         5.152E-25

    TOTAL POWER DISSIPATION   0.00E+00  WATTS



          JOB CONCLUDED

          TOTAL JOB TIME            0.00
